T4E20 489:844 SEGGER J-Link V6.46 Log File (0000ms, 47050ms total)
T4E20 489:844 DLL Compiled: May 23 2019 17:49:56 (0000ms, 47050ms total)
T4E20 489:844 Logging started @ 2019-10-21 15:29 (0000ms, 47050ms total)
T4E20 489:844 JLINK_SetWarnOutHandler(...) (0000ms, 47050ms total)
T4E20 489:844 JLINK_OpenEx(...)
Firmware: J-Link V10 compiled Oct  8 2019 14:57:57
Hardware: V10.10
S/N: 50109140
Feature(s): GDB
TELNET listener socket opened on port 19021Device "CORTEX-M4" selected.WEBSRV 
Starting webserver (0027ms, 47077ms total)
T4E20 489:844 WEBSRV Webserver running on local port 19080 (0028ms, 47078ms total)
T4E20 489:844   returns O.K. (0028ms, 47078ms total)
T4E20 489:872 JLINK_GetEmuCaps()  returns 0xB9FF7BBF (0000ms, 47078ms total)
T4E20 489:872 JLINK_TIF_GetAvailable(...) (0000ms, 47078ms total)
T4E20 489:872 JLINK_SetErrorOutHandler(...) (0000ms, 47078ms total)
T4E20 489:872 JLINK_ExecCommand("ProjectFile = "C:\CODE\PACK\MDR_Pack\PACK_Gen\Files\Examples\All_Boards\SSP_Test\SSP_TestVE8\JLinkSettings.ini"", ...). Device "CORTEX-M4" selected.  returns 0x00 (0001ms, 47079ms total)
T4E20 489:873 JLINK_ExecCommand("Device = MDR1986VE8", ...). Device "CORTEX-M4" selected.  returns 0x00 (0001ms, 47080ms total)
T4E20 489:874 JLINK_ExecCommand("DisableConnectionTimeout", ...).   returns 0x01 (0000ms, 47080ms total)
T4E20 489:874 JLINK_GetHardwareVersion()  returns 0x18A88 (0000ms, 47080ms total)
T4E20 489:874 JLINK_GetDLLVersion()  returns 64600 (0000ms, 47080ms total)
T4E20 489:874 JLINK_GetFirmwareString(...) (0000ms, 47080ms total)
T4E20 489:874 JLINK_GetDLLVersion()  returns 64600 (0000ms, 47080ms total)
T4E20 489:874 JLINK_GetCompileDateTime() (0000ms, 47080ms total)
T4E20 489:874 JLINK_GetFirmwareString(...) (0000ms, 47080ms total)
T4E20 489:874 JLINK_GetHardwareVersion()  returns 0x18A88 (0000ms, 47080ms total)
T4E20 489:874 JLINK_TIF_Select(JLINKARM_TIF_SWD)  returns 0x00 (0000ms, 47080ms total)
T4E20 489:874 JLINK_SetSpeed(2000) (0001ms, 47081ms total)
T4E20 489:875 JLINK_GetId() >0x10B TIF>Found SW-DP with ID 0x2BA01477 >0x0D TIF> >0x28 TIF> >0x0D TIF> >0x28 TIF> >0x0D TIF> >0x28 TIF> >0x0D TIF> >0x28 TIF> >0x0D TIF> >0x21 TIF> >0x0D TIF> >0x28 TIF>Scanning AP map to find all available APs >0x0D TIF> >0x28 TIF> >0x0D TIF> >0x21 TIF> >0x0D TIF> >0x21 TIF> >0x0D TIF> >0x28 TIF> >0x0D TIF> >0x21 TIF> >0x0D TIF> >0x21 TIF> >0x0D TIF> >0x28 TIF> >0x0D TIF> >0x21 TIF> >0x0D TIF> >0x21 TIF>AP[2]: Stopped AP scan as end of AP map has been reached
AP[0]: AHB-AP (IDR: 0x24770011)AP[1]: AHB-AP (IDR: 0x24770011)Iterating through AP map to find AHB-AP to use >0x42 TIF> >0x28 TIF> >0x0D TIF> >0x28 TIF> >0x0D TIF> >0x21 TIF> >0x0D TIF> >0x21 TIF> >0x42 TIF> >0x28 TIF> >0x0D TIF> >0x28 TIF> >0x0D TIF> >0x28 TIF> >0x0D TIF> >0x21 TIF> >0x0D TIF> >0x21 TIF>AP[0]: Core foundAP[0]: AHB-AP ROM base: 0xE00FF000 >0x0D TIF> >0x28 TIF> >0x0D TIF> >0x28 TIF> >0x0D TIF> >0x28 TIF> >0x0D TIF> >0x21 TIF> >0x0D TIF> >0x21 TIF>
CPUID register: 0x410FC241. Implementer code: 0x41 (ARM)Found Cortex-M4 r0p1, Little endian. -- Max. mem block: 0x00004738 -- CPU_ReadMem(4 bytes @ 0xE000EDF0) -- CPU_WriteMem(4 bytes @ 0xE000EDF0) -- CPU_ReadMem(4 bytes @ 0xE0002000)FPUnit: 6 code (BP) slots and 2 literal slots -- CPU_ReadMem(4 bytes @ 0xE000EDFC) -- CPU_WriteMem(4 bytes @ 0xE000EDFC) -- CPU_ReadMem(4 bytes @ 0xE0001000) -- CPU_WriteMem(4 bytes @ 0xE0001000) -- CPU_ReadMem(4 bytes @ 0xE000ED88) -- CPU_WriteMem(4 bytes @ 0xE000ED88)
 -- CPU_ReadMem(4 bytes @ 0xE000ED88) -- CPU_WriteMem(4 bytes @ 0xE000ED88)CoreSight components:ROMTbl[0] @ E00FF000 -- CPU_ReadMem(16 bytes @ 0xE00FF000) -- CPU_ReadMem(16 bytes @ 0xE000EFF0) -- CPU_ReadMem(16 bytes @ 0xE000EFE0)ROMTbl[0][0]: E000E000, CID: B105E00D, PID: 000BB00C SCS-M7 -- CPU_ReadMem(16 bytes @ 0xE0001FF0) -- CPU_ReadMem(16 bytes @ 0xE0001FE0)ROMTbl[0][1]: E0001000, CID: B105E00D, PID: 003BB002 DWT -- CPU_ReadMem(16 bytes @ 0xE0002FF0) -- CPU_ReadMem(16 bytes @ 0xE0002FE0)
ROMTbl[0][2]: E0002000, CID: B105E00D, PID: 002BB003 FPB -- CPU_ReadMem(16 bytes @ 0xE0000FF0) -- CPU_ReadMem(16 bytes @ 0xE0000FE0)ROMTbl[0][3]: E0000000, CID: B105E00D, PID: 003BB001 ITM -- CPU_ReadMem(16 bytes @ 0xE00FF010) -- CPU_ReadMem(16 bytes @ 0xE0040FF0) -- CPU_ReadMem(16 bytes @ 0xE0040FE0)ROMTbl[0][4]: E0040000, CID: B105900D, PID: 000BB9A1 TPIU -- CPU_ReadMem(16 bytes @ 0xE0041FF0) -- CPU_ReadMem(16 bytes @ 0xE0041FE0)ROMTbl[0][5]: E0041000, CID: B105900D, PID: 000BB925 ETM >0x0D TIF>
 >0x21 TIF>  returns 0x2BA01477 (0127ms, 47208ms total)
T4E20 490:002 JLINK_GetDLLVersion()  returns 64600 (0000ms, 47208ms total)
T4E20 490:002 JLINK_CORE_GetFound()  returns 0xE0000FF (0000ms, 47208ms total)
T4E20 490:002 JLINK_GetDebugInfo(0x100 = JLINKARM_ROM_TABLE_ADDR_INDEX) -- Value=0xE00FF000  returns 0x00 (0000ms, 47208ms total)
T4E20 490:002 JLINK_GetDebugInfo(0x100 = JLINKARM_ROM_TABLE_ADDR_INDEX) -- Value=0xE00FF000  returns 0x00 (0000ms, 47208ms total)
T4E20 490:002 JLINK_GetDebugInfo(0x101 = JLINKARM_DEBUG_INFO_ETM_ADDR_INDEX) -- Value=0xE0041000  returns 0x00 (0000ms, 47208ms total)
T4E20 490:002 JLINK_ReadMemEx(0xE0041FD0, 0x0020 Bytes, ..., Flags = 0x02000004) -- CPU_ReadMem(32 bytes @ 0xE0041FD0) - Data: 04 00 00 00 00 00 00 00 00 00 00 00 00 00 00 00 ...  returns 0x20 (0000ms, 47208ms total)
T4E20 490:002 JLINK_GetDebugInfo(0x102 = JLINKARM_DEBUG_INFO_MTB_ADDR_INDEX) -- Value=0x00000000  returns 0x00 (0000ms, 47208ms total)
T4E20 490:002 JLINK_GetDebugInfo(0x103 = JLINKARM_DEBUG_INFO_TPIU_ADDR_INDEX) -- Value=0xE0040000  returns 0x00 (0000ms, 47208ms total)
T4E20 490:002 JLINK_GetDebugInfo(0x104 = JLINKARM_DEBUG_INFO_ITM_ADDR_INDEX) -- Value=0xE0000000  returns 0x00 (0000ms, 47208ms total)
T4E20 490:002 JLINK_GetDebugInfo(0x105 = JLINKARM_DEBUG_INFO_DWT_ADDR_INDEX) -- Value=0xE0001000  returns 0x00 (0000ms, 47208ms total)
T4E20 490:002 JLINK_GetDebugInfo(0x106 = JLINKARM_DEBUG_INFO_FPB_ADDR_INDEX) -- Value=0xE0002000  returns 0x00 (0000ms, 47208ms total)
T4E20 490:002 JLINK_GetDebugInfo(0x107 = JLINKARM_DEBUG_INFO_NVIC_ADDR_INDEX) -- Value=0xE000E000  returns 0x00 (0000ms, 47208ms total)
T4E20 490:002 JLINK_GetDebugInfo(0x10C = JLINKARM_DEBUG_INFO_DBG_ADDR_INDEX) -- Value=0xE000EDF0  returns 0x00 (0000ms, 47208ms total)
T4E20 490:002 JLINK_GetDebugInfo(0x01 = Unknown) -- Value=0x00000001  returns 0x00 (0000ms, 47208ms total)
T4E20 490:002 JLINK_ReadMemU32(0xE000ED00, 0x0001 Items, ...) -- CPU_ReadMem(4 bytes @ 0xE000ED00) - Data: 41 C2 0F 41  returns 1 (0001ms, 47209ms total)
T4E20 490:003 JLINK_GetDebugInfo(0x10F = JLINKARM_DEBUG_INFO_HAS_CORTEX_M_SECURITY_EXT_INDEX) -- Value=0x00000000  returns 0x00 (0000ms, 47209ms total)
T4E20 490:003 JLINK_SetResetType(JLINKARM_CM3_RESET_TYPE_RESETPIN)  returns JLINKARM_CM3_RESET_TYPE_NORMAL (0000ms, 47209ms total)
T4E20 490:003 JLINK_Reset() -- CPU is running -- CPU_WriteMem(4 bytes @ 0xE000EDF0) -- CPU is running -- CPU_WriteMem(4 bytes @ 0xE000EDFC)Reset: Halt core after reset via DEMCR.VC_CORERESET.Reset: Reset device via reset pin -- CPU_WriteMem(4 bytes @ 0xE000EDFC) -- CPU_ReadMem(4 bytes @ 0xE000EDF0) -- CPU_WriteMem(4 bytes @ 0xE0002000) -- CPU_ReadMem(4 bytes @ 0xE000EDFC) -- CPU_ReadMem(4 bytes @ 0xE0001000) (0130ms, 47339ms total)
T4E20 490:133 JLINK_ReadReg(R15 (PC))  returns 0x00000238 (0000ms, 47339ms total)
T4E20 490:133 JLINK_ReadReg(XPSR)  returns 0x01000000 (0000ms, 47339ms total)
T4E20 490:133 JLINK_Halt()  returns 0x00 (0000ms, 47339ms total)
T4E20 490:133 JLINK_ReadMemU32(0xE000EDF0, 0x0001 Items, ...) -- CPU_ReadMem(4 bytes @ 0xE000EDF0) - Data: 03 00 03 00  returns 1 (0000ms, 47339ms total)
T4E20 490:133 JLINK_WriteU32(0xE000EDF0, 0xA05F0003) -- CPU_WriteMem(4 bytes @ 0xE000EDF0)  returns 0 (0001ms, 47340ms total)
T4E20 490:134 JLINK_WriteU32(0xE000EDFC, 0x01000000) -- CPU_WriteMem(4 bytes @ 0xE000EDFC)  returns 0 (0000ms, 47340ms total)
T4E20 490:134 JLINK_GetHWStatus(...)  returns 0x00 (0000ms, 47340ms total)
T4E20 490:134 JLINK_GetNumBPUnits(Type = 0xFFFFFF00)  returns 0x06 (0000ms, 47340ms total)
T4E20 490:134 JLINK_GetNumBPUnits(Type = 0xF0)  returns 0x2000 (0000ms, 47340ms total)
T4E20 490:134 JLINK_GetNumWPUnits()  returns 0x04 (0000ms, 47340ms total)
T4E20 490:134 JLINK_GetSpeed()  returns 0x7D0 (0000ms, 47340ms total)
T4E20 490:134 JLINK_ReadMemU32(0xE000E004, 0x0001 Items, ...) -- CPU_ReadMem(4 bytes @ 0xE000E004) - Data: 03 00 00 00  returns 1 (0000ms, 47340ms total)
T4E20 490:134 JLINK_ReadMemU32(0xE000E004, 0x0001 Items, ...) -- CPU_ReadMem(4 bytes @ 0xE000E004) - Data: 03 00 00 00  returns 1 (0001ms, 47341ms total)
T4E20 490:135 JLINK_WriteMemEx(0xE0001000, 0x001C Bytes, ..., Flags = 0x02000004) - Data: 01 00 00 00 00 00 00 00 00 00 00 00 00 00 00 00 ... -- CPU_WriteMem(28 bytes @ 0xE0001000)  returns 0x1C (0001ms, 47342ms total)
T4E20 490:136 JLINK_ReadReg(R15 (PC))  returns 0x00000238 (0000ms, 47342ms total)
T4E20 490:136 JLINK_ReadReg(XPSR)  returns 0x01000000 (0000ms, 47342ms total)
T4E20 490:137 JLINK_ReadMemEx(0xE0001004, 0x0004 Bytes, ..., Flags = 0x02000000) - Data: 00 00 00 00  returns 0x04 (0000ms, 47342ms total)
T4E20 490:151 JLINK_WriteMemEx(0x20000000, 0x1000 Bytes, ..., Flags = 0x02000000) - Data: F0 74 00 20 E5 02 00 20 01 03 00 20 03 03 00 20 ... -- CPU_WriteMem(4096 bytes @ 0x20000000)  returns 0x1000 (0026ms, 47368ms total)
T4E20 490:177 JLINK_WriteMemEx(0x20001000, 0x1000 Bytes, ..., Flags = 0x02000000) - Data: 9C 24 06 FB 07 FC 4F EA 1C 4C 0C FB 0B F7 B0 EB ... -- CPU_WriteMem(4096 bytes @ 0x20001000)  returns 0x1000 (0026ms, 47394ms total)
T4E20 490:204 JLINK_WriteMemEx(0x20002000, 0x1000 Bytes, ..., Flags = 0x02000000) - Data: 03 20 B0 40 69 69 01 43 69 61 0B E0 99 F8 02 10 ... -- CPU_WriteMem(4096 bytes @ 0x20002000)  returns 0x1000 (0025ms, 47419ms total)
T4E20 490:230 JLINK_WriteMemEx(0x20003000, 0x0614 Bytes, ..., Flags = 0x02000000) - Data: BD E8 00 41 81 EA 03 01 00 F0 98 B9 F0 BC BD E8 ... -- CPU_WriteMem(1556 bytes @ 0x20003000)  returns 0x614 (0010ms, 47429ms total)
T4E20 490:291 JLINK_SetResetType(JLINKARM_CM3_RESET_TYPE_RESETPIN)  returns JLINKARM_CM3_RESET_TYPE_RESETPIN (0001ms, 47430ms total)
T4E20 490:292 JLINK_Reset() -- CPU_WriteMem(4 bytes @ 0xE000EDF0) -- CPU_WriteMem(4 bytes @ 0xE000EDFC)Reset: Halt core after reset via DEMCR.VC_CORERESET.Reset: Reset device via reset pin -- CPU_WriteMem(4 bytes @ 0xE000EDFC) -- CPU_ReadMem(4 bytes @ 0xE000EDF0) -- CPU_WriteMem(4 bytes @ 0xE0002000) -- CPU_ReadMem(4 bytes @ 0xE000EDFC) -- CPU_ReadMem(4 bytes @ 0xE0001000) (0131ms, 47561ms total)
T4E20 490:423 JLINK_ReadReg(R15 (PC))  returns 0x00000238 (0000ms, 47561ms total)
T4E20 490:423 JLINK_ReadReg(XPSR)  returns 0x01000000 (0000ms, 47561ms total)
T4E20 490:423 JLINK_ReadMemEx(0x00000238, 0x003C Bytes, ..., Flags = 0x02000000) -- CPU_ReadMem(60 bytes @ 0x00000238) - Data: 1F 4A 4F F0 0F 00 4F EA 00 50 C2 F8 88 00 1D 48 ...  returns 0x3C (0001ms, 47562ms total)
T4E20 490:424 JLINK_ReadMemEx(0x00000238, 0x0002 Bytes, ..., Flags = 0x02000000) -- CPU_ReadMem(2 bytes @ 0x00000238) - Data: 1F 4A  returns 0x02 (0000ms, 47562ms total)
T4E20 490:424 JLINK_ReadMemEx(0x0000023A, 0x0002 Bytes, ..., Flags = 0x02000000) -- CPU_ReadMem(2 bytes @ 0x0000023A) - Data: 4F F0  returns 0x02 (0001ms, 47563ms total)
T4E20 490:425 JLINK_ReadMemEx(0x0000023A, 0x0002 Bytes, ..., Flags = 0x02000000) -- CPU_ReadMem(2 bytes @ 0x0000023A) - Data: 4F F0  returns 0x02 (0000ms, 47563ms total)
T4E20 490:425 JLINK_ReadMemEx(0x0000023C, 0x003C Bytes, ..., Flags = 0x02000000) -- CPU_ReadMem(60 bytes @ 0x0000023C) - Data: 0F 00 4F EA 00 50 C2 F8 88 00 1D 48 1D 49 4F F0 ...  returns 0x3C (0001ms, 47564ms total)
T4E20 490:426 JLINK_ReadMemEx(0x0000023C, 0x0002 Bytes, ..., Flags = 0x02000000) -- CPU_ReadMem(2 bytes @ 0x0000023C) - Data: 0F 00  returns 0x02 (0000ms, 47564ms total)
T4E20 490:426 JLINK_ReadMemEx(0x0000023E, 0x0002 Bytes, ..., Flags = 0x02000000) -- CPU_ReadMem(2 bytes @ 0x0000023E) - Data: 4F EA  returns 0x02 (0000ms, 47564ms total)
T4E20 490:426 JLINK_ReadMemEx(0x00000240, 0x003C Bytes, ..., Flags = 0x02000000) -- CPU_ReadMem(60 bytes @ 0x00000240) - Data: 00 50 C2 F8 88 00 1D 48 1D 49 4F F0 00 02 4F F0 ...  returns 0x3C (0001ms, 47565ms total)
T4E20 490:427 JLINK_ReadMemEx(0x00000240, 0x0002 Bytes, ..., Flags = 0x02000000) -- CPU_ReadMem(2 bytes @ 0x00000240) - Data: 00 50  returns 0x02 (0000ms, 47565ms total)
T4E20 490:427 JLINK_ReadMemEx(0x00000242, 0x0002 Bytes, ..., Flags = 0x02000000) -- CPU_ReadMem(2 bytes @ 0x00000242) - Data: C2 F8  returns 0x02 (0001ms, 47566ms total)
T4E20 490:428 JLINK_ReadMemEx(0x00000244, 0x003C Bytes, ..., Flags = 0x02000000) -- CPU_ReadMem(60 bytes @ 0x00000244) - Data: 88 00 1D 48 1D 49 4F F0 00 02 4F F0 00 03 4F F0 ...  returns 0x3C (0000ms, 47566ms total)
T4E20 490:429 JLINK_ReadMemEx(0x00000244, 0x0002 Bytes, ..., Flags = 0x02000000) -- CPU_ReadMem(2 bytes @ 0x00000244) - Data: 88 00  returns 0x02 (0000ms, 47566ms total)
T4E20 490:429 JLINK_ReadMemEx(0x00000246, 0x0002 Bytes, ..., Flags = 0x02000000) -- CPU_ReadMem(2 bytes @ 0x00000246) - Data: 1D 48  returns 0x02 (0000ms, 47566ms total)
T4E20 490:429 JLINK_ReadMemEx(0x00000248, 0x003C Bytes, ..., Flags = 0x02000000) -- CPU_ReadMem(60 bytes @ 0x00000248) - Data: 1D 49 4F F0 00 02 4F F0 00 03 4F F0 00 04 4F F0 ...  returns 0x3C (0001ms, 47567ms total)
T4E20 490:430 JLINK_ReadMemEx(0x00000248, 0x0002 Bytes, ..., Flags = 0x02000000) -- CPU_ReadMem(2 bytes @ 0x00000248) - Data: 1D 49  returns 0x02 (0000ms, 47567ms total)
T4E20 490:430 JLINK_ReadMemEx(0x00000248, 0x003C Bytes, ..., Flags = 0x02000000) -- CPU_ReadMem(60 bytes @ 0x00000248) - Data: 1D 49 4F F0 00 02 4F F0 00 03 4F F0 00 04 4F F0 ...  returns 0x3C (0001ms, 47568ms total)
T4E20 490:431 JLINK_ReadMemEx(0x00000248, 0x0002 Bytes, ..., Flags = 0x02000000) -- CPU_ReadMem(2 bytes @ 0x00000248) - Data: 1D 49  returns 0x02 (0000ms, 47568ms total)
T4E20 490:431 JLINK_ReadMemEx(0x0000024A, 0x0002 Bytes, ..., Flags = 0x02000000) -- CPU_ReadMem(2 bytes @ 0x0000024A) - Data: 4F F0  returns 0x02 (0001ms, 47569ms total)
T4E20 490:432 JLINK_ReadMemEx(0x0000024A, 0x0002 Bytes, ..., Flags = 0x02000000) -- CPU_ReadMem(2 bytes @ 0x0000024A) - Data: 4F F0  returns 0x02 (0000ms, 47569ms total)
T4E20 490:432 JLINK_ReadMemEx(0x0000024C, 0x003C Bytes, ..., Flags = 0x02000000) -- CPU_ReadMem(60 bytes @ 0x0000024C) - Data: 00 02 4F F0 00 03 4F F0 00 04 4F F0 00 05 4F F0 ...  returns 0x3C (0001ms, 47570ms total)
T4E20 490:433 JLINK_ReadMemEx(0x0000024C, 0x0002 Bytes, ..., Flags = 0x02000000) -- CPU_ReadMem(2 bytes @ 0x0000024C) - Data: 00 02  returns 0x02 (0000ms, 47570ms total)
T4E20 490:479 JLINK_ReadMemEx(0x40001000, 0x00F0 Bytes, ..., Flags = 0x02000004) -- CPU_ReadMem(240 bytes @ 0x40001000) - Data: 00 00 00 00 00 00 00 00 00 00 00 00 00 00 00 00 ...  returns 0xF0 (0002ms, 47572ms total)
T4E20 490:481 JLINK_ReadMemEx(0x400010F0, 0x0004 Bytes, ..., Flags = 0x02000004) -- CPU_ReadMem(4 bytes @ 0x400010F0) - Data: 00 00 00 00  returns 0x04 (0000ms, 47572ms total)
T4E20 490:481 JLINK_ReadMemEx(0x40001100, 0x0040 Bytes, ..., Flags = 0x02000004) -- CPU_ReadMem(64 bytes @ 0x40001100) - Data: 52 52 FF 41 80 80 80 80 80 80 40 40 40 C0 F0 A0 ...  returns 0x40 (0001ms, 47573ms total)
T4E20 490:482 JLINK_ReadMemEx(0x40001140, 0x0004 Bytes, ..., Flags = 0x02000004) -- CPU_ReadMem(4 bytes @ 0x40001140) - Data: 00 00 00 00  returns 0x04 (0001ms, 47574ms total)
T4E20 490:483 JLINK_ReadMemEx(0x40001150, 0x0010 Bytes, ..., Flags = 0x02000004) -- CPU_ReadMem(16 bytes @ 0x40001150) - Data: 00 00 00 00 00 00 00 00 00 00 00 00 00 00 00 00  returns 0x10 (0000ms, 47574ms total)
T4E20 490:483 JLINK_ReadMemEx(0x40001160, 0x0004 Bytes, ..., Flags = 0x02000004) -- CPU_ReadMem(4 bytes @ 0x40001160) - Data: 00 00 00 00  returns 0x04 (0001ms, 47575ms total)
T4E20 490:484 JLINK_ReadMemEx(0x40001170, 0x0010 Bytes, ..., Flags = 0x02000004) -- CPU_ReadMem(16 bytes @ 0x40001170) - Data: 00 00 00 00 00 00 00 00 00 00 00 00 00 00 00 00  returns 0x10 (0000ms, 47575ms total)
T4E20 490:484 JLINK_ReadMemEx(0x40001180, 0x0004 Bytes, ..., Flags = 0x02000004) -- CPU_ReadMem(4 bytes @ 0x40001180) - Data: 00 00 00 00  returns 0x04 (0001ms, 47576ms total)
T4E20 492:003 JLINK_ReadMemEx(0x00000238, 0x003C Bytes, ..., Flags = 0x02000000) -- CPU_ReadMem(60 bytes @ 0x00000238) - Data: 1F 4A 4F F0 0F 00 4F EA 00 50 C2 F8 88 00 1D 48 ...  returns 0x3C (0001ms, 47577ms total)
T4E20 492:004 JLINK_ReadMemEx(0x00000238, 0x0002 Bytes, ..., Flags = 0x02000000) -- CPU_ReadMem(2 bytes @ 0x00000238) - Data: 1F 4A  returns 0x02 (0000ms, 47577ms total)
T4E20 492:004 JLINK_ReadMemEx(0x0000023A, 0x0002 Bytes, ..., Flags = 0x02000000) -- CPU_ReadMem(2 bytes @ 0x0000023A) - Data: 4F F0  returns 0x02 (0000ms, 47577ms total)
T4E20 492:004 JLINK_ReadMemEx(0x0000023A, 0x0002 Bytes, ..., Flags = 0x02000000) -- CPU_ReadMem(2 bytes @ 0x0000023A) - Data: 4F F0  returns 0x02 (0001ms, 47578ms total)
T4E20 492:005 JLINK_ReadMemEx(0x0000023C, 0x003C Bytes, ..., Flags = 0x02000000) -- CPU_ReadMem(60 bytes @ 0x0000023C) - Data: 0F 00 4F EA 00 50 C2 F8 88 00 1D 48 1D 49 4F F0 ...  returns 0x3C (0000ms, 47578ms total)
T4E20 492:005 JLINK_ReadMemEx(0x0000023C, 0x0002 Bytes, ..., Flags = 0x02000000) -- CPU_ReadMem(2 bytes @ 0x0000023C) - Data: 0F 00  returns 0x02 (0001ms, 47579ms total)
T4E20 492:006 JLINK_ReadMemEx(0x0000023E, 0x0002 Bytes, ..., Flags = 0x02000000) -- CPU_ReadMem(2 bytes @ 0x0000023E) - Data: 4F EA  returns 0x02 (0000ms, 47579ms total)
T4E20 492:006 JLINK_ReadMemEx(0x00000240, 0x003C Bytes, ..., Flags = 0x02000000) -- CPU_ReadMem(60 bytes @ 0x00000240) - Data: 00 50 C2 F8 88 00 1D 48 1D 49 4F F0 00 02 4F F0 ...  returns 0x3C (0001ms, 47580ms total)
T4E20 492:007 JLINK_ReadMemEx(0x00000240, 0x0002 Bytes, ..., Flags = 0x02000000) -- CPU_ReadMem(2 bytes @ 0x00000240) - Data: 00 50  returns 0x02 (0000ms, 47580ms total)
T4E20 492:007 JLINK_ReadMemEx(0x00000242, 0x0002 Bytes, ..., Flags = 0x02000000) -- CPU_ReadMem(2 bytes @ 0x00000242) - Data: C2 F8  returns 0x02 (0000ms, 47580ms total)
T4E20 492:007 JLINK_ReadMemEx(0x00000244, 0x003C Bytes, ..., Flags = 0x02000000) -- CPU_ReadMem(60 bytes @ 0x00000244) - Data: 88 00 1D 48 1D 49 4F F0 00 02 4F F0 00 03 4F F0 ...  returns 0x3C (0001ms, 47581ms total)
T4E20 492:008 JLINK_ReadMemEx(0x00000244, 0x0002 Bytes, ..., Flags = 0x02000000) -- CPU_ReadMem(2 bytes @ 0x00000244) - Data: 88 00  returns 0x02 (0000ms, 47581ms total)
T4E20 492:008 JLINK_ReadMemEx(0x00000246, 0x0002 Bytes, ..., Flags = 0x02000000) -- CPU_ReadMem(2 bytes @ 0x00000246) - Data: 1D 48  returns 0x02 (0000ms, 47581ms total)
T4E20 492:008 JLINK_ReadMemEx(0x00000248, 0x003C Bytes, ..., Flags = 0x02000000) -- CPU_ReadMem(60 bytes @ 0x00000248) - Data: 1D 49 4F F0 00 02 4F F0 00 03 4F F0 00 04 4F F0 ...  returns 0x3C (0001ms, 47582ms total)
T4E20 492:009 JLINK_ReadMemEx(0x00000248, 0x0002 Bytes, ..., Flags = 0x02000000) -- CPU_ReadMem(2 bytes @ 0x00000248) - Data: 1D 49  returns 0x02 (0000ms, 47582ms total)
T4E20 492:009 JLINK_ReadMemEx(0x00000248, 0x003C Bytes, ..., Flags = 0x02000000) -- CPU_ReadMem(60 bytes @ 0x00000248) - Data: 1D 49 4F F0 00 02 4F F0 00 03 4F F0 00 04 4F F0 ...  returns 0x3C (0001ms, 47583ms total)
T4E20 492:010 JLINK_ReadMemEx(0x00000248, 0x0002 Bytes, ..., Flags = 0x02000000) -- CPU_ReadMem(2 bytes @ 0x00000248) - Data: 1D 49  returns 0x02 (0000ms, 47583ms total)
T4E20 492:010 JLINK_ReadMemEx(0x0000024A, 0x0002 Bytes, ..., Flags = 0x02000000) -- CPU_ReadMem(2 bytes @ 0x0000024A) - Data: 4F F0  returns 0x02 (0001ms, 47584ms total)
T4E20 492:011 JLINK_ReadMemEx(0x0000024A, 0x0002 Bytes, ..., Flags = 0x02000000) -- CPU_ReadMem(2 bytes @ 0x0000024A) - Data: 4F F0  returns 0x02 (0000ms, 47584ms total)
T4E20 492:011 JLINK_ReadMemEx(0x0000024C, 0x003C Bytes, ..., Flags = 0x02000000) -- CPU_ReadMem(60 bytes @ 0x0000024C) - Data: 00 02 4F F0 00 03 4F F0 00 04 4F F0 00 05 4F F0 ...  returns 0x3C (0001ms, 47585ms total)
T4E20 492:012 JLINK_ReadMemEx(0x0000024C, 0x0002 Bytes, ..., Flags = 0x02000000) -- CPU_ReadMem(2 bytes @ 0x0000024C) - Data: 00 02  returns 0x02 (0000ms, 47585ms total)
T4E20 492:218 JLINK_ReadReg(R0)  returns 0x00000000 (0001ms, 47586ms total)
T4E20 492:219 JLINK_ReadReg(R1)  returns 0x00000000 (0000ms, 47586ms total)
T4E20 492:219 JLINK_ReadReg(R2)  returns 0x00000000 (0000ms, 47586ms total)
T4E20 492:219 JLINK_ReadReg(R3)  returns 0x00000000 (0000ms, 47586ms total)
T4E20 492:219 JLINK_ReadReg(R4)  returns 0x00000000 (0000ms, 47586ms total)
T4E20 492:219 JLINK_ReadReg(R5)  returns 0x00000000 (0000ms, 47586ms total)
T4E20 492:219 JLINK_ReadReg(R6)  returns 0x00000000 (0000ms, 47586ms total)
T4E20 492:219 JLINK_ReadReg(R7)  returns 0x00000000 (0000ms, 47586ms total)
T4E20 492:219 JLINK_ReadReg(R8)  returns 0x00000000 (0000ms, 47586ms total)
T4E20 492:219 JLINK_ReadReg(R9)  returns 0x00000000 (0000ms, 47586ms total)
T4E20 492:219 JLINK_ReadReg(R10)  returns 0x00000000 (0000ms, 47586ms total)
T4E20 492:219 JLINK_ReadReg(R11)  returns 0x00000000 (0000ms, 47586ms total)
T4E20 492:219 JLINK_ReadReg(R12)  returns 0x00000000 (0000ms, 47586ms total)
T4E20 492:219 JLINK_ReadReg(R13 (SP))  returns 0x20007FF0 (0000ms, 47586ms total)
T4E20 492:219 JLINK_ReadReg(R14)  returns 0xFFFFFFFF (0000ms, 47586ms total)
T4E20 492:219 JLINK_ReadReg(R15 (PC))  returns 0x00000238 (0000ms, 47586ms total)
T4E20 492:219 JLINK_ReadReg(XPSR)  returns 0x01000000 (0000ms, 47586ms total)
T4E20 492:219 JLINK_ReadReg(MSP)  returns 0x20007FF0 (0000ms, 47586ms total)
T4E20 492:219 JLINK_ReadReg(PSP)  returns 0x00000000 (0000ms, 47586ms total)
T4E20 492:219 JLINK_ReadReg(CFBP)  returns 0x00000000 (0000ms, 47586ms total)
T4E20 492:219 JLINK_ReadReg(FPSCR)  returns 0x00000000 (0005ms, 47591ms total)
T4E20 492:224 JLINK_ReadReg(FPS0)  returns 0x00000000 (0000ms, 47591ms total)
T4E20 492:224 JLINK_ReadReg(FPS1)  returns 0x00000000 (0000ms, 47591ms total)
T4E20 492:224 JLINK_ReadReg(FPS2)  returns 0x00000000 (0000ms, 47591ms total)
T4E20 492:224 JLINK_ReadReg(FPS3)  returns 0x00000000 (0000ms, 47591ms total)
T4E20 492:224 JLINK_ReadReg(FPS4)  returns 0x00000000 (0000ms, 47591ms total)
T4E20 492:224 JLINK_ReadReg(FPS5)  returns 0x00000000 (0000ms, 47591ms total)
T4E20 492:224 JLINK_ReadReg(FPS6)  returns 0x00000000 (0000ms, 47591ms total)
T4E20 492:224 JLINK_ReadReg(FPS7)  returns 0x00000000 (0000ms, 47591ms total)
T4E20 492:224 JLINK_ReadReg(FPS8)  returns 0x00000000 (0000ms, 47591ms total)
T4E20 492:224 JLINK_ReadReg(FPS9)  returns 0x00000000 (0000ms, 47591ms total)
T4E20 492:224 JLINK_ReadReg(FPS10)  returns 0x00000000 (0000ms, 47591ms total)
T4E20 492:224 JLINK_ReadReg(FPS11)  returns 0x00000000 (0000ms, 47591ms total)
T4E20 492:224 JLINK_ReadReg(FPS12)  returns 0x00000000 (0000ms, 47591ms total)
T4E20 492:224 JLINK_ReadReg(FPS13)  returns 0x00000000 (0000ms, 47591ms total)
T4E20 492:224 JLINK_ReadReg(FPS14)  returns 0x00000000 (0000ms, 47591ms total)
T4E20 492:224 JLINK_ReadReg(FPS15)  returns 0x00000000 (0000ms, 47591ms total)
T4E20 492:224 JLINK_ReadReg(FPS16)  returns 0x00000000 (0000ms, 47591ms total)
T4E20 492:224 JLINK_ReadReg(FPS17)  returns 0x00000000 (0000ms, 47591ms total)
T4E20 492:224 JLINK_ReadReg(FPS18)  returns 0x00000000 (0000ms, 47591ms total)
T4E20 492:224 JLINK_ReadReg(FPS19)  returns 0x00000000 (0000ms, 47591ms total)
T4E20 492:224 JLINK_ReadReg(FPS20)  returns 0x00000000 (0000ms, 47591ms total)
T4E20 492:224 JLINK_ReadReg(FPS21)  returns 0x00000000 (0000ms, 47591ms total)
T4E20 492:224 JLINK_ReadReg(FPS22)  returns 0x00000000 (0000ms, 47591ms total)
T4E20 492:224 JLINK_ReadReg(FPS23)  returns 0x00000000 (0001ms, 47592ms total)
T4E20 492:225 JLINK_ReadReg(FPS24)  returns 0x00000000 (0000ms, 47592ms total)
T4E20 492:225 JLINK_ReadReg(FPS25)  returns 0x00000000 (0000ms, 47592ms total)
T4E20 492:225 JLINK_ReadReg(FPS26)  returns 0x00000000 (0000ms, 47592ms total)
T4E20 492:225 JLINK_ReadReg(FPS27)  returns 0x00000000 (0000ms, 47592ms total)
T4E20 492:225 JLINK_ReadReg(FPS28)  returns 0x00000000 (0000ms, 47592ms total)
T4E20 492:225 JLINK_ReadReg(FPS29)  returns 0x00000000 (0000ms, 47592ms total)
T4E20 492:225 JLINK_ReadReg(FPS30)  returns 0x00000000 (0000ms, 47592ms total)
T4E20 492:225 JLINK_ReadReg(FPS31)  returns 0x00000000 (0000ms, 47592ms total)
T4E20 492:225 JLINK_ReadMemEx(0x20000000, 0x0004 Bytes, ..., Flags = 0x02000000) -- CPU_ReadMem(4 bytes @ 0x20000000) - Data: F0 74 00 20  returns 0x04 (0000ms, 47592ms total)
T4E20 492:225 JLINK_WriteReg(R13 (SP), 0x200074F0)  returns 0x00 (0000ms, 47592ms total)
T4E20 492:225 JLINK_ReadReg(R0)  returns 0x00000000 (0000ms, 47592ms total)
T4E20 492:225 JLINK_ReadReg(R1)  returns 0x00000000 (0000ms, 47592ms total)
T4E20 492:225 JLINK_ReadReg(R2)  returns 0x00000000 (0000ms, 47592ms total)
T4E20 492:225 JLINK_ReadReg(R3)  returns 0x00000000 (0000ms, 47592ms total)
T4E20 492:225 JLINK_ReadReg(R4)  returns 0x00000000 (0000ms, 47592ms total)
T4E20 492:225 JLINK_ReadReg(R5)  returns 0x00000000 (0000ms, 47592ms total)
T4E20 492:225 JLINK_ReadReg(R6)  returns 0x00000000 (0001ms, 47593ms total)
T4E20 492:226 JLINK_ReadReg(R7)  returns 0x00000000 (0000ms, 47593ms total)
T4E20 492:226 JLINK_ReadReg(R8)  returns 0x00000000 (0000ms, 47593ms total)
T4E20 492:226 JLINK_ReadReg(R9)  returns 0x00000000 (0000ms, 47593ms total)
T4E20 492:226 JLINK_ReadReg(R10)  returns 0x00000000 (0000ms, 47593ms total)
T4E20 492:226 JLINK_ReadReg(R11)  returns 0x00000000 (0000ms, 47593ms total)
T4E20 492:226 JLINK_ReadReg(R12)  returns 0x00000000 (0000ms, 47593ms total)
T4E20 492:226 JLINK_ReadReg(R13 (SP))  returns 0x200074F0 (0000ms, 47593ms total)
T4E20 492:226 JLINK_ReadReg(R14)  returns 0xFFFFFFFF (0000ms, 47593ms total)
T4E20 492:226 JLINK_ReadReg(R15 (PC))  returns 0x00000238 (0000ms, 47593ms total)
T4E20 492:226 JLINK_ReadReg(XPSR)  returns 0x01000000 (0000ms, 47593ms total)
T4E20 492:226 JLINK_ReadReg(MSP)  returns 0x200074F0 (0000ms, 47593ms total)
T4E20 492:226 JLINK_ReadReg(PSP)  returns 0x00000000 (0000ms, 47593ms total)
T4E20 492:226 JLINK_ReadReg(CFBP)  returns 0x00000000 (0000ms, 47593ms total)
T4E20 492:226 JLINK_ReadReg(FPSCR)  returns 0x00000000 (0000ms, 47593ms total)
T4E20 492:226 JLINK_ReadReg(FPS0)  returns 0x00000000 (0000ms, 47593ms total)
T4E20 492:226 JLINK_ReadReg(FPS1)  returns 0x00000000 (0000ms, 47593ms total)
T4E20 492:226 JLINK_ReadReg(FPS2)  returns 0x00000000 (0000ms, 47593ms total)
T4E20 492:226 JLINK_ReadReg(FPS3)  returns 0x00000000 (0000ms, 47593ms total)
T4E20 492:226 JLINK_ReadReg(FPS4)  returns 0x00000000 (0000ms, 47593ms total)
T4E20 492:226 JLINK_ReadReg(FPS5)  returns 0x00000000 (0000ms, 47593ms total)
T4E20 492:226 JLINK_ReadReg(FPS6)  returns 0x00000000 (0000ms, 47593ms total)
T4E20 492:226 JLINK_ReadReg(FPS7)  returns 0x00000000 (0000ms, 47593ms total)
T4E20 492:226 JLINK_ReadReg(FPS8)  returns 0x00000000 (0000ms, 47593ms total)
T4E20 492:226 JLINK_ReadReg(FPS9)  returns 0x00000000 (0000ms, 47593ms total)
T4E20 492:226 JLINK_ReadReg(FPS10)  returns 0x00000000 (0000ms, 47593ms total)
T4E20 492:226 JLINK_ReadReg(FPS11)  returns 0x00000000 (0000ms, 47593ms total)
T4E20 492:226 JLINK_ReadReg(FPS12)  returns 0x00000000 (0000ms, 47593ms total)
T4E20 492:226 JLINK_ReadReg(FPS13)  returns 0x00000000 (0000ms, 47593ms total)
T4E20 492:226 JLINK_ReadReg(FPS14)  returns 0x00000000 (0000ms, 47593ms total)
T4E20 492:226 JLINK_ReadReg(FPS15)  returns 0x00000000 (0000ms, 47593ms total)
T4E20 492:226 JLINK_ReadReg(FPS16)  returns 0x00000000 (0000ms, 47593ms total)
T4E20 492:226 JLINK_ReadReg(FPS17)  returns 0x00000000 (0000ms, 47593ms total)
T4E20 492:226 JLINK_ReadReg(FPS18)  returns 0x00000000 (0000ms, 47593ms total)
T4E20 492:226 JLINK_ReadReg(FPS19)  returns 0x00000000 (0000ms, 47593ms total)
T4E20 492:226 JLINK_ReadReg(FPS20)  returns 0x00000000 (0000ms, 47593ms total)
T4E20 492:226 JLINK_ReadReg(FPS21)  returns 0x00000000 (0000ms, 47593ms total)
T4E20 492:226 JLINK_ReadReg(FPS22)  returns 0x00000000 (0000ms, 47593ms total)
T4E20 492:226 JLINK_ReadReg(FPS23)  returns 0x00000000 (0000ms, 47593ms total)
T4E20 492:226 JLINK_ReadReg(FPS24)  returns 0x00000000 (0000ms, 47593ms total)
T4E20 492:226 JLINK_ReadReg(FPS25)  returns 0x00000000 (0000ms, 47593ms total)
T4E20 492:226 JLINK_ReadReg(FPS26)  returns 0x00000000 (0000ms, 47593ms total)
T4E20 492:226 JLINK_ReadReg(FPS27)  returns 0x00000000 (0000ms, 47593ms total)
T4E20 492:226 JLINK_ReadReg(FPS28)  returns 0x00000000 (0000ms, 47593ms total)
T4E20 492:226 JLINK_ReadReg(FPS29)  returns 0x00000000 (0000ms, 47593ms total)
T4E20 492:226 JLINK_ReadReg(FPS30)  returns 0x00000000 (0000ms, 47593ms total)
T4E20 492:226 JLINK_ReadReg(FPS31)  returns 0x00000000 (0000ms, 47593ms total)
T4E20 492:226 JLINK_ReadMemEx(0x20000004, 0x0004 Bytes, ..., Flags = 0x02000000) -- CPU_ReadMem(4 bytes @ 0x20000004) - Data: E5 02 00 20  returns 0x04 (0001ms, 47594ms total)
T4E20 492:227 JLINK_WriteReg(R15 (PC), 0x200002E4)  returns 0x00 (0000ms, 47594ms total)
T4E20 492:227 JLINK_ReadReg(R0)  returns 0x00000000 (0000ms, 47594ms total)
T4E20 492:227 JLINK_ReadReg(R1)  returns 0x00000000 (0000ms, 47594ms total)
T4E20 492:227 JLINK_ReadReg(R2)  returns 0x00000000 (0000ms, 47594ms total)
T4E20 492:227 JLINK_ReadReg(R3)  returns 0x00000000 (0000ms, 47594ms total)
T4E20 492:227 JLINK_ReadReg(R4)  returns 0x00000000 (0000ms, 47594ms total)
T4E20 492:227 JLINK_ReadReg(R5)  returns 0x00000000 (0000ms, 47594ms total)
T4E20 492:227 JLINK_ReadReg(R6)  returns 0x00000000 (0000ms, 47594ms total)
T4E20 492:227 JLINK_ReadReg(R7)  returns 0x00000000 (0000ms, 47594ms total)
T4E20 492:227 JLINK_ReadReg(R8)  returns 0x00000000 (0000ms, 47594ms total)
T4E20 492:227 JLINK_ReadReg(R9)  returns 0x00000000 (0000ms, 47594ms total)
T4E20 492:227 JLINK_ReadReg(R10)  returns 0x00000000 (0000ms, 47594ms total)
T4E20 492:227 JLINK_ReadReg(R11)  returns 0x00000000 (0000ms, 47594ms total)
T4E20 492:227 JLINK_ReadReg(R12)  returns 0x00000000 (0000ms, 47594ms total)
T4E20 492:227 JLINK_ReadReg(R13 (SP))  returns 0x200074F0 (0000ms, 47594ms total)
T4E20 492:227 JLINK_ReadReg(R14)  returns 0xFFFFFFFF (0000ms, 47594ms total)
T4E20 492:227 JLINK_ReadReg(R15 (PC))  returns 0x200002E4 (0000ms, 47594ms total)
T4E20 492:227 JLINK_ReadReg(XPSR)  returns 0x01000000 (0000ms, 47594ms total)
T4E20 492:227 JLINK_ReadReg(MSP)  returns 0x200074F0 (0000ms, 47594ms total)
T4E20 492:227 JLINK_ReadReg(PSP)  returns 0x00000000 (0000ms, 47594ms total)
T4E20 492:227 JLINK_ReadReg(CFBP)  returns 0x00000000 (0000ms, 47594ms total)
T4E20 492:227 JLINK_ReadReg(FPSCR)  returns 0x00000000 (0000ms, 47594ms total)
T4E20 492:227 JLINK_ReadReg(FPS0)  returns 0x00000000 (0000ms, 47594ms total)
T4E20 492:227 JLINK_ReadReg(FPS1)  returns 0x00000000 (0000ms, 47594ms total)
T4E20 492:227 JLINK_ReadReg(FPS2)  returns 0x00000000 (0000ms, 47594ms total)
T4E20 492:227 JLINK_ReadReg(FPS3)  returns 0x00000000 (0000ms, 47594ms total)
T4E20 492:227 JLINK_ReadReg(FPS4)  returns 0x00000000 (0000ms, 47594ms total)
T4E20 492:227 JLINK_ReadReg(FPS5)  returns 0x00000000 (0000ms, 47594ms total)
T4E20 492:227 JLINK_ReadReg(FPS6)  returns 0x00000000 (0000ms, 47594ms total)
T4E20 492:227 JLINK_ReadReg(FPS7)  returns 0x00000000 (0000ms, 47594ms total)
T4E20 492:227 JLINK_ReadReg(FPS8)  returns 0x00000000 (0000ms, 47594ms total)
T4E20 492:227 JLINK_ReadReg(FPS9)  returns 0x00000000 (0000ms, 47594ms total)
T4E20 492:227 JLINK_ReadReg(FPS10)  returns 0x00000000 (0000ms, 47594ms total)
T4E20 492:227 JLINK_ReadReg(FPS11)  returns 0x00000000 (0000ms, 47594ms total)
T4E20 492:227 JLINK_ReadReg(FPS12)  returns 0x00000000 (0000ms, 47594ms total)
T4E20 492:227 JLINK_ReadReg(FPS13)  returns 0x00000000 (0000ms, 47594ms total)
T4E20 492:227 JLINK_ReadReg(FPS14)  returns 0x00000000 (0000ms, 47594ms total)
T4E20 492:227 JLINK_ReadReg(FPS15)  returns 0x00000000 (0000ms, 47594ms total)
T4E20 492:227 JLINK_ReadReg(FPS16)  returns 0x00000000 (0000ms, 47594ms total)
T4E20 492:227 JLINK_ReadReg(FPS17)  returns 0x00000000 (0000ms, 47594ms total)
T4E20 492:227 JLINK_ReadReg(FPS18)  returns 0x00000000 (0000ms, 47594ms total)
T4E20 492:227 JLINK_ReadReg(FPS19)  returns 0x00000000 (0000ms, 47594ms total)
T4E20 492:227 JLINK_ReadReg(FPS20)  returns 0x00000000 (0000ms, 47594ms total)
T4E20 492:227 JLINK_ReadReg(FPS21)  returns 0x00000000 (0000ms, 47594ms total)
T4E20 492:227 JLINK_ReadReg(FPS22)  returns 0x00000000 (0000ms, 47594ms total)
T4E20 492:227 JLINK_ReadReg(FPS23)  returns 0x00000000 (0000ms, 47594ms total)
T4E20 492:227 JLINK_ReadReg(FPS24)  returns 0x00000000 (0000ms, 47594ms total)
T4E20 492:227 JLINK_ReadReg(FPS25)  returns 0x00000000 (0000ms, 47594ms total)
T4E20 492:227 JLINK_ReadReg(FPS26)  returns 0x00000000 (0001ms, 47595ms total)
T4E20 492:228 JLINK_ReadReg(FPS27)  returns 0x00000000 (0000ms, 47595ms total)
T4E20 492:228 JLINK_ReadReg(FPS28)  returns 0x00000000 (0000ms, 47595ms total)
T4E20 492:228 JLINK_ReadReg(FPS29)  returns 0x00000000 (0000ms, 47595ms total)
T4E20 492:228 JLINK_ReadReg(FPS30)  returns 0x00000000 (0000ms, 47595ms total)
T4E20 492:228 JLINK_ReadReg(FPS31)  returns 0x00000000 (0000ms, 47595ms total)
T4E20 492:228 JLINK_WriteMemEx(0xE000ED08, 0x0004 Bytes, ..., Flags = 0x02000000) - Data: 00 00 00 20 -- CPU_WriteMem(4 bytes @ 0xE000ED08)  returns 0x04 (0000ms, 47595ms total)
T2FE0 492:234 JLINK_ReadMemEx(0x200002E4, 0x0002 Bytes, ..., Flags = 0x02000000) -- CPU_ReadMem(2 bytes @ 0x200002E4) - Data: DF F8  returns 0x02 (0001ms, 47596ms total)
T2FE0 492:235 JLINK_SetBPEx(Addr = 0x20002C10, Type = 0xFFFFFFF2) -- CPU_ReadMem(4 bytes @ 0x20002C10) -- CPU_WriteMem(4 bytes @ 0x20002C10) -- CPU_ReadMem(4 bytes @ 0x20002C10) -- CPU_WriteMem(4 bytes @ 0x20002C10) -- CPU_ReadMem(2 bytes @ 0x20002C10)  returns 0x00000001 (0001ms, 47597ms total)
T2FE0 492:236 JLINK_Go() -- CPU_WriteMem(2 bytes @ 0x20002C10) -- CPU_ReadMem(4 bytes @ 0xE0001000) -- CPU_WriteMem(4 bytes @ 0xE0002008) -- CPU_WriteMem(4 bytes @ 0xE000200C) -- CPU_WriteMem(4 bytes @ 0xE0002010) -- CPU_WriteMem(4 bytes @ 0xE0002014) -- CPU_WriteMem(4 bytes @ 0xE0002018) -- CPU_WriteMem(4 bytes @ 0xE000201C) -- CPU_WriteMem(4 bytes @ 0xE0001004) (0003ms, 47600ms total)
T2FE0 492:339 JLINK_IsHalted() -- CPU_ReadMem(2 bytes @ 0x20002C10)  returns TRUE (0003ms, 47603ms total)
T2FE0 492:342 JLINK_Halt()  returns 0x00 (0000ms, 47600ms total)
T2FE0 492:342 JLINK_IsHalted()  returns TRUE (0000ms, 47600ms total)
T2FE0 492:342 JLINK_IsHalted()  returns TRUE (0000ms, 47600ms total)
T2FE0 492:342 JLINK_IsHalted()  returns TRUE (0000ms, 47600ms total)
T2FE0 492:342 JLINK_ReadReg(R15 (PC))  returns 0x20002C10 (0000ms, 47600ms total)
T2FE0 492:342 JLINK_ReadReg(XPSR)  returns 0x61000000 (0000ms, 47600ms total)
T2FE0 492:342 JLINK_ClrBPEx(BPHandle = 0x00000001)  returns 0x00 (0000ms, 47600ms total)
T2FE0 492:342 JLINK_ReadMemU32(0xE000ED30, 0x0001 Items, ...) -- CPU_ReadMem(4 bytes @ 0xE000ED30) - Data: 02 00 00 00  returns 1 (0000ms, 47600ms total)
T2FE0 492:342 JLINK_ReadMemU32(0xE0001028, 0x0001 Items, ...) -- CPU_ReadMem(4 bytes @ 0xE0001028) - Data: 00 00 00 00  returns 1 (0001ms, 47601ms total)
T2FE0 492:343 JLINK_ReadMemU32(0xE0001038, 0x0001 Items, ...) -- CPU_ReadMem(4 bytes @ 0xE0001038) - Data: 00 02 00 00  returns 1 (0000ms, 47601ms total)
T2FE0 492:343 JLINK_ReadMemU32(0xE0001048, 0x0001 Items, ...) -- CPU_ReadMem(4 bytes @ 0xE0001048) - Data: 00 00 00 00  returns 1 (0000ms, 47601ms total)
T2FE0 492:343 JLINK_ReadMemU32(0xE0001058, 0x0001 Items, ...) -- CPU_ReadMem(4 bytes @ 0xE0001058) - Data: 00 00 00 00  returns 1 (0001ms, 47602ms total)
T2FE0 492:344 JLINK_ReadReg(R0)  returns 0x200054F0 (0000ms, 47602ms total)
T2FE0 492:344 JLINK_ReadReg(R1)  returns 0x200064F0 (0000ms, 47602ms total)
T2FE0 492:344 JLINK_ReadReg(R2)  returns 0x200064F0 (0000ms, 47602ms total)
T2FE0 492:344 JLINK_ReadReg(R3)  returns 0x200064F0 (0000ms, 47602ms total)
T2FE0 492:344 JLINK_ReadReg(R4)  returns 0x00000000 (0000ms, 47602ms total)
T2FE0 492:344 JLINK_ReadReg(R5)  returns 0x2000548C (0000ms, 47602ms total)
T2FE0 492:344 JLINK_ReadReg(R6)  returns 0x00000000 (0000ms, 47602ms total)
T2FE0 492:344 JLINK_ReadReg(R7)  returns 0x00000000 (0000ms, 47602ms total)
T2FE0 492:344 JLINK_ReadReg(R8)  returns 0x00000000 (0000ms, 47602ms total)
T2FE0 492:344 JLINK_ReadReg(R9)  returns 0x00000000 (0000ms, 47602ms total)
T2FE0 492:344 JLINK_ReadReg(R10)  returns 0x20003574 (0000ms, 47602ms total)
T2FE0 492:344 JLINK_ReadReg(R11)  returns 0x00000000 (0000ms, 47602ms total)
T2FE0 492:344 JLINK_ReadReg(R12)  returns 0x200054CC (0000ms, 47602ms total)
T2FE0 492:344 JLINK_ReadReg(R13 (SP))  returns 0x200074F0 (0000ms, 47602ms total)
T2FE0 492:344 JLINK_ReadReg(R14)  returns 0x200002C9 (0000ms, 47602ms total)
T2FE0 492:344 JLINK_ReadReg(R15 (PC))  returns 0x20002C10 (0000ms, 47602ms total)
T2FE0 492:344 JLINK_ReadReg(XPSR)  returns 0x61000000 (0000ms, 47602ms total)
T2FE0 492:344 JLINK_ReadReg(MSP)  returns 0x200074F0 (0000ms, 47602ms total)
T2FE0 492:344 JLINK_ReadReg(PSP)  returns 0x00000000 (0000ms, 47602ms total)
T2FE0 492:344 JLINK_ReadReg(CFBP)  returns 0x04000000 (0000ms, 47602ms total)
T2FE0 492:344 JLINK_ReadReg(FPSCR)  returns 0x03000000 (0005ms, 47607ms total)
T2FE0 492:349 JLINK_ReadReg(FPS0)  returns 0x00000000 (0000ms, 47607ms total)
T2FE0 492:349 JLINK_ReadReg(FPS1)  returns 0x00000000 (0000ms, 47607ms total)
T2FE0 492:349 JLINK_ReadReg(FPS2)  returns 0x00000000 (0000ms, 47607ms total)
T2FE0 492:349 JLINK_ReadReg(FPS3)  returns 0x00000000 (0000ms, 47607ms total)
T2FE0 492:349 JLINK_ReadReg(FPS4)  returns 0x00000000 (0000ms, 47607ms total)
T2FE0 492:349 JLINK_ReadReg(FPS5)  returns 0x00000000 (0000ms, 47607ms total)
T2FE0 492:349 JLINK_ReadReg(FPS6)  returns 0x00000000 (0000ms, 47607ms total)
T2FE0 492:349 JLINK_ReadReg(FPS7)  returns 0x00000000 (0000ms, 47607ms total)
T2FE0 492:349 JLINK_ReadReg(FPS8)  returns 0x00000000 (0000ms, 47607ms total)
T2FE0 492:349 JLINK_ReadReg(FPS9)  returns 0x00000000 (0000ms, 47607ms total)
T2FE0 492:349 JLINK_ReadReg(FPS10)  returns 0x00000000 (0000ms, 47607ms total)
T2FE0 492:349 JLINK_ReadReg(FPS11)  returns 0x00000000 (0000ms, 47607ms total)
T2FE0 492:349 JLINK_ReadReg(FPS12)  returns 0x00000000 (0000ms, 47607ms total)
T2FE0 492:349 JLINK_ReadReg(FPS13)  returns 0x00000000 (0000ms, 47607ms total)
T2FE0 492:349 JLINK_ReadReg(FPS14)  returns 0x00000000 (0000ms, 47607ms total)
T2FE0 492:349 JLINK_ReadReg(FPS15)  returns 0x00000000 (0000ms, 47607ms total)
T2FE0 492:349 JLINK_ReadReg(FPS16)  returns 0x00000000 (0000ms, 47607ms total)
T2FE0 492:349 JLINK_ReadReg(FPS17)  returns 0x00000000 (0000ms, 47607ms total)
T2FE0 492:349 JLINK_ReadReg(FPS18)  returns 0x00000000 (0000ms, 47607ms total)
T2FE0 492:349 JLINK_ReadReg(FPS19)  returns 0x00000000 (0000ms, 47607ms total)
T2FE0 492:349 JLINK_ReadReg(FPS20)  returns 0x00000000 (0000ms, 47607ms total)
T2FE0 492:349 JLINK_ReadReg(FPS21)  returns 0x00000000 (0000ms, 47607ms total)
T2FE0 492:349 JLINK_ReadReg(FPS22)  returns 0x00000000 (0000ms, 47607ms total)
T2FE0 492:349 JLINK_ReadReg(FPS23)  returns 0x00000000 (0000ms, 47607ms total)
T2FE0 492:349 JLINK_ReadReg(FPS24)  returns 0x00000000 (0000ms, 47607ms total)
T2FE0 492:349 JLINK_ReadReg(FPS25)  returns 0x00000000 (0000ms, 47607ms total)
T2FE0 492:349 JLINK_ReadReg(FPS26)  returns 0x00000000 (0000ms, 47607ms total)
T2FE0 492:349 JLINK_ReadReg(FPS27)  returns 0x00000000 (0000ms, 47607ms total)
T2FE0 492:349 JLINK_ReadReg(FPS28)  returns 0x00000000 (0000ms, 47607ms total)
T2FE0 492:349 JLINK_ReadReg(FPS29)  returns 0x00000000 (0000ms, 47607ms total)
T2FE0 492:349 JLINK_ReadReg(FPS30)  returns 0x00000000 (0000ms, 47607ms total)
T2FE0 492:349 JLINK_ReadReg(FPS31)  returns 0x00000000 (0001ms, 47608ms total)
T4E20 492:376 JLINK_ReadMemU32(0xE0001004, 0x0001 Items, ...) -- CPU_ReadMem(4 bytes @ 0xE0001004) - Data: 28 03 00 00  returns 1 (0001ms, 47609ms total)
T4E20 492:377 JLINK_ReadMemEx(0x40001000, 0x00F0 Bytes, ..., Flags = 0x02000004) -- CPU_ReadMem(240 bytes @ 0x40001000) - Data: 00 00 00 00 00 00 00 00 00 00 00 00 00 00 00 00 ...  returns 0xF0 (0002ms, 47611ms total)
T4E20 492:379 JLINK_ReadMemEx(0x400010F0, 0x0004 Bytes, ..., Flags = 0x02000004) -- CPU_ReadMem(4 bytes @ 0x400010F0) - Data: 00 00 00 00  returns 0x04 (0000ms, 47611ms total)
T4E20 492:379 JLINK_ReadMemEx(0x40001100, 0x0040 Bytes, ..., Flags = 0x02000004) -- CPU_ReadMem(64 bytes @ 0x40001100) - Data: 52 04 FF 51 80 80 80 80 80 80 40 40 40 C0 F0 A0 ...  returns 0x40 (0001ms, 47612ms total)
T4E20 492:380 JLINK_ReadMemEx(0x40001140, 0x0004 Bytes, ..., Flags = 0x02000004) -- CPU_ReadMem(4 bytes @ 0x40001140) - Data: 00 00 00 00  returns 0x04 (0000ms, 47612ms total)
T4E20 492:380 JLINK_ReadMemEx(0x40001150, 0x0010 Bytes, ..., Flags = 0x02000004) -- CPU_ReadMem(16 bytes @ 0x40001150) - Data: 00 00 00 00 00 00 00 00 00 00 00 00 00 00 00 00  returns 0x10 (0001ms, 47613ms total)
T4E20 492:381 JLINK_ReadMemEx(0x40001160, 0x0004 Bytes, ..., Flags = 0x02000004) -- CPU_ReadMem(4 bytes @ 0x40001160) - Data: 00 00 00 00  returns 0x04 (0000ms, 47613ms total)
T4E20 492:381 JLINK_ReadMemEx(0x40001170, 0x0010 Bytes, ..., Flags = 0x02000004) -- CPU_ReadMem(16 bytes @ 0x40001170) - Data: 00 00 00 00 00 00 00 00 00 00 00 00 00 00 00 00  returns 0x10 (0001ms, 47614ms total)
T4E20 492:382 JLINK_ReadMemEx(0x40001180, 0x0004 Bytes, ..., Flags = 0x02000004) -- CPU_ReadMem(4 bytes @ 0x40001180) - Data: 00 00 00 00  returns 0x04 (0000ms, 47614ms total)
T4E20 492:383 JLINK_ReadMemEx(0x20002B10, 0x003C Bytes, ..., Flags = 0x02000000) -- CPU_ReadMem(128 bytes @ 0x20002B00) -- Updating DA cache (128 bytes @ 0x20002B00) -- Read from DA cache (60 bytes @ 0x20002B10) - Data: E0 B2 43 28 07 D0 45 28 09 D0 4E 28 0B D1 01 20 ...  returns 0x3C (0002ms, 47616ms total)
T4E20 492:385 JLINK_ReadMemEx(0x20002B10, 0x0002 Bytes, ..., Flags = 0x02000000) -- Read from DA cache (2 bytes @ 0x20002B10) - Data: E0 B2  returns 0x02 (0000ms, 47616ms total)
T4E20 492:385 JLINK_ReadMemEx(0x20002B12, 0x0002 Bytes, ..., Flags = 0x02000000) -- Read from DA cache (2 bytes @ 0x20002B12) - Data: 43 28  returns 0x02 (0000ms, 47616ms total)
T4E20 492:385 JLINK_ReadMemEx(0x20002B12, 0x0002 Bytes, ..., Flags = 0x02000000) -- Read from DA cache (2 bytes @ 0x20002B12) - Data: 43 28  returns 0x02 (0000ms, 47616ms total)
T4E20 492:385 JLINK_ReadMemEx(0x20002B14, 0x003C Bytes, ..., Flags = 0x02000000) -- Read from DA cache (60 bytes @ 0x20002B14) - Data: 07 D0 45 28 09 D0 4E 28 0B D1 01 20 0D 49 08 70 ...  returns 0x3C (0000ms, 47616ms total)
T4E20 492:385 JLINK_ReadMemEx(0x20002B14, 0x0002 Bytes, ..., Flags = 0x02000000) -- Read from DA cache (2 bytes @ 0x20002B14) - Data: 07 D0  returns 0x02 (0000ms, 47616ms total)
T4E20 492:385 JLINK_ReadMemEx(0x20002B14, 0x003C Bytes, ..., Flags = 0x02000000) -- Read from DA cache (60 bytes @ 0x20002B14) - Data: 07 D0 45 28 09 D0 4E 28 0B D1 01 20 0D 49 08 70 ...  returns 0x3C (0000ms, 47616ms total)
T4E20 492:385 JLINK_ReadMemEx(0x20002B14, 0x0002 Bytes, ..., Flags = 0x02000000) -- Read from DA cache (2 bytes @ 0x20002B14) - Data: 07 D0  returns 0x02 (0000ms, 47616ms total)
T4E20 492:385 JLINK_ReadMemEx(0x20002B16, 0x0002 Bytes, ..., Flags = 0x02000000) -- Read from DA cache (2 bytes @ 0x20002B16) - Data: 45 28  returns 0x02 (0000ms, 47616ms total)
T4E20 492:385 JLINK_ReadMemEx(0x20002B16, 0x0002 Bytes, ..., Flags = 0x02000000) -- Read from DA cache (2 bytes @ 0x20002B16) - Data: 45 28  returns 0x02 (0000ms, 47616ms total)
T4E20 492:385 JLINK_ReadMemEx(0x20002B18, 0x003C Bytes, ..., Flags = 0x02000000) -- Read from DA cache (60 bytes @ 0x20002B18) - Data: 09 D0 4E 28 0B D1 01 20 0D 49 08 70 07 E0 01 20 ...  returns 0x3C (0000ms, 47616ms total)
T4E20 492:385 JLINK_ReadMemEx(0x20002B18, 0x0002 Bytes, ..., Flags = 0x02000000) -- Read from DA cache (2 bytes @ 0x20002B18) - Data: 09 D0  returns 0x02 (0000ms, 47616ms total)
T4E20 492:385 JLINK_ReadMemEx(0x20002B18, 0x003C Bytes, ..., Flags = 0x02000000) -- Read from DA cache (60 bytes @ 0x20002B18) - Data: 09 D0 4E 28 0B D1 01 20 0D 49 08 70 07 E0 01 20 ...  returns 0x3C (0000ms, 47616ms total)
T4E20 492:385 JLINK_ReadMemEx(0x20002B18, 0x0002 Bytes, ..., Flags = 0x02000000) -- Read from DA cache (2 bytes @ 0x20002B18) - Data: 09 D0  returns 0x02 (0000ms, 47616ms total)
T4E20 492:385 JLINK_ReadMemEx(0x20002B1A, 0x0002 Bytes, ..., Flags = 0x02000000) -- Read from DA cache (2 bytes @ 0x20002B1A) - Data: 4E 28  returns 0x02 (0000ms, 47616ms total)
T4E20 492:385 JLINK_ReadMemEx(0x20002B1A, 0x0002 Bytes, ..., Flags = 0x02000000) -- Read from DA cache (2 bytes @ 0x20002B1A) - Data: 4E 28  returns 0x02 (0000ms, 47616ms total)
T4E20 492:385 JLINK_ReadMemEx(0x20002B1C, 0x003C Bytes, ..., Flags = 0x02000000) -- Read from DA cache (60 bytes @ 0x20002B1C) - Data: 0B D1 01 20 0D 49 08 70 07 E0 01 20 0C 49 08 70 ...  returns 0x3C (0000ms, 47616ms total)
T4E20 492:385 JLINK_ReadMemEx(0x20002B1C, 0x0002 Bytes, ..., Flags = 0x02000000) -- Read from DA cache (2 bytes @ 0x20002B1C) - Data: 0B D1  returns 0x02 (0000ms, 47616ms total)
T4E20 492:385 JLINK_ReadMemEx(0x20002B1C, 0x003C Bytes, ..., Flags = 0x02000000) -- Read from DA cache (60 bytes @ 0x20002B1C) - Data: 0B D1 01 20 0D 49 08 70 07 E0 01 20 0C 49 08 70 ...  returns 0x3C (0000ms, 47616ms total)
T4E20 492:385 JLINK_ReadMemEx(0x20002B1C, 0x0002 Bytes, ..., Flags = 0x02000000) -- Read from DA cache (2 bytes @ 0x20002B1C) - Data: 0B D1  returns 0x02 (0000ms, 47616ms total)
T4E20 492:385 JLINK_ReadMemEx(0x20002B1E, 0x0002 Bytes, ..., Flags = 0x02000000) -- Read from DA cache (2 bytes @ 0x20002B1E) - Data: 01 20  returns 0x02 (0000ms, 47616ms total)
T4E20 492:385 JLINK_ReadMemEx(0x20002B1E, 0x0002 Bytes, ..., Flags = 0x02000000) -- Read from DA cache (2 bytes @ 0x20002B1E) - Data: 01 20  returns 0x02 (0000ms, 47616ms total)
T4E20 492:385 JLINK_ReadMemEx(0x20002B20, 0x003C Bytes, ..., Flags = 0x02000000) -- Read from DA cache (60 bytes @ 0x20002B20) - Data: 0D 49 08 70 07 E0 01 20 0C 49 08 70 03 E0 01 20 ...  returns 0x3C (0000ms, 47616ms total)
T4E20 492:385 JLINK_ReadMemEx(0x20002B20, 0x0002 Bytes, ..., Flags = 0x02000000) -- Read from DA cache (2 bytes @ 0x20002B20) - Data: 0D 49  returns 0x02 (0000ms, 47616ms total)
T4E20 492:385 JLINK_ReadMemEx(0x20002B20, 0x003C Bytes, ..., Flags = 0x02000000) -- Read from DA cache (60 bytes @ 0x20002B20) - Data: 0D 49 08 70 07 E0 01 20 0C 49 08 70 03 E0 01 20 ...  returns 0x3C (0000ms, 47616ms total)
T4E20 492:385 JLINK_ReadMemEx(0x20002B20, 0x0002 Bytes, ..., Flags = 0x02000000) -- Read from DA cache (2 bytes @ 0x20002B20) - Data: 0D 49  returns 0x02 (0000ms, 47616ms total)
T4E20 492:385 JLINK_ReadMemEx(0x20002B22, 0x0002 Bytes, ..., Flags = 0x02000000) -- Read from DA cache (2 bytes @ 0x20002B22) - Data: 08 70  returns 0x02 (0000ms, 47616ms total)
T4E20 492:385 JLINK_ReadMemEx(0x20002B22, 0x0002 Bytes, ..., Flags = 0x02000000) -- Read from DA cache (2 bytes @ 0x20002B22) - Data: 08 70  returns 0x02 (0000ms, 47616ms total)
T4E20 492:385 JLINK_ReadMemEx(0x20002B24, 0x003C Bytes, ..., Flags = 0x02000000) -- Read from DA cache (60 bytes @ 0x20002B24) - Data: 07 E0 01 20 0C 49 08 70 03 E0 01 20 0B 49 08 70 ...  returns 0x3C (0000ms, 47616ms total)
T4E20 492:385 JLINK_ReadMemEx(0x20002B24, 0x0002 Bytes, ..., Flags = 0x02000000) -- Read from DA cache (2 bytes @ 0x20002B24) - Data: 07 E0  returns 0x02 (0000ms, 47616ms total)
T4E20 492:385 JLINK_ReadMemEx(0x20002B24, 0x003C Bytes, ..., Flags = 0x02000000) -- Read from DA cache (60 bytes @ 0x20002B24) - Data: 07 E0 01 20 0C 49 08 70 03 E0 01 20 0B 49 08 70 ...  returns 0x3C (0000ms, 47616ms total)
T4E20 492:385 JLINK_ReadMemEx(0x20002B24, 0x0002 Bytes, ..., Flags = 0x02000000) -- Read from DA cache (2 bytes @ 0x20002B24) - Data: 07 E0  returns 0x02 (0000ms, 47616ms total)
T4E20 492:385 JLINK_ReadMemEx(0x20002B26, 0x0002 Bytes, ..., Flags = 0x02000000) -- Read from DA cache (2 bytes @ 0x20002B26) - Data: 01 20  returns 0x02 (0000ms, 47616ms total)
T4E20 492:385 JLINK_ReadMemEx(0x20002B26, 0x0002 Bytes, ..., Flags = 0x02000000) -- Read from DA cache (2 bytes @ 0x20002B26) - Data: 01 20  returns 0x02 (0000ms, 47616ms total)
T4E20 492:385 JLINK_ReadMemEx(0x20002B28, 0x003C Bytes, ..., Flags = 0x02000000) -- Read from DA cache (60 bytes @ 0x20002B28) - Data: 0C 49 08 70 03 E0 01 20 0B 49 08 70 00 BF 00 BF ...  returns 0x3C (0000ms, 47616ms total)
T4E20 492:385 JLINK_ReadMemEx(0x20002B28, 0x0002 Bytes, ..., Flags = 0x02000000) -- Read from DA cache (2 bytes @ 0x20002B28) - Data: 0C 49  returns 0x02 (0000ms, 47616ms total)
T4E20 492:385 JLINK_ReadMemEx(0x20002B28, 0x003C Bytes, ..., Flags = 0x02000000) -- Read from DA cache (60 bytes @ 0x20002B28) - Data: 0C 49 08 70 03 E0 01 20 0B 49 08 70 00 BF 00 BF ...  returns 0x3C (0000ms, 47616ms total)
T4E20 492:385 JLINK_ReadMemEx(0x20002B28, 0x0002 Bytes, ..., Flags = 0x02000000) -- Read from DA cache (2 bytes @ 0x20002B28) - Data: 0C 49  returns 0x02 (0000ms, 47616ms total)
T4E20 492:385 JLINK_ReadMemEx(0x20002B2A, 0x0002 Bytes, ..., Flags = 0x02000000) -- Read from DA cache (2 bytes @ 0x20002B2A) - Data: 08 70  returns 0x02 (0000ms, 47616ms total)
T4E20 492:385 JLINK_ReadMemEx(0x20002B2A, 0x0002 Bytes, ..., Flags = 0x02000000) -- Read from DA cache (2 bytes @ 0x20002B2A) - Data: 08 70  returns 0x02 (0000ms, 47616ms total)
T4E20 492:385 JLINK_ReadMemEx(0x20002B2C, 0x003C Bytes, ..., Flags = 0x02000000) -- Read from DA cache (60 bytes @ 0x20002B2C) - Data: 03 E0 01 20 0B 49 08 70 00 BF 00 BF E1 B2 0A A0 ...  returns 0x3C (0000ms, 47616ms total)
T4E20 492:385 JLINK_ReadMemEx(0x20002B2C, 0x0002 Bytes, ..., Flags = 0x02000000) -- Read from DA cache (2 bytes @ 0x20002B2C) - Data: 03 E0  returns 0x02 (0000ms, 47616ms total)
T4E20 492:385 JLINK_ReadMemEx(0x20002B2C, 0x003C Bytes, ..., Flags = 0x02000000) -- Read from DA cache (60 bytes @ 0x20002B2C) - Data: 03 E0 01 20 0B 49 08 70 00 BF 00 BF E1 B2 0A A0 ...  returns 0x3C (0000ms, 47616ms total)
T4E20 492:385 JLINK_ReadMemEx(0x20002B2C, 0x0002 Bytes, ..., Flags = 0x02000000) -- Read from DA cache (2 bytes @ 0x20002B2C) - Data: 03 E0  returns 0x02 (0001ms, 47617ms total)
